
T2A68 000:301 SEGGER J-Link V5.10h Log File (0001ms, 0278ms total)
T2A68 000:301 DLL Compiled: Jan 21 2016 19:24:29 (0001ms, 0278ms total)
T2A68 000:301 Logging started @ 2019-04-24 08:21 (0001ms, 0278ms total)
T2A68 000:302 JLINK_SetWarnOutHandler(...) (0000ms, 0278ms total)
T2A68 000:302 JLINK_OpenEx(...)
Firmware: J-Link V9 compiled Jun  2 2222 22:22:22
Hardware: V9.40
S/N: 59401308
Feature(s): GDB, RDI, FlashBP, FlashDL, JFlash, RDDI  returns O.K. (0279ms, 0557ms total)
T2A68 000:581 JLINK_SetErrorOutHandler(...) (0000ms, 0557ms total)
T2A68 000:581 JLINK_ExecCommand("ProjectFile = "D:\BaiduNetdiskDownload\WORK\ZHDT-JFV1.0\ZHDT_JFV2.1_CODE\Project\JLinkSettings.ini"", ...)  returns 0x00 (0001ms, 0558ms total)
T2A68 000:586 JLINK_ExecCommand("Device = STM32F103RC", ...)Device "STM32F103RC" selected.  returns 0x00 (0007ms, 0565ms total)
T2A68 000:593 JLINK_ExecCommand("DisableConnectionTimeout", ...)  returns 0x01 (0000ms, 0565ms total)
T2A68 000:593 JLINK_GetHardwareVersion()  returns 0x16F30 (0000ms, 0565ms total)
T2A68 000:593 JLINK_GetDLLVersion()  returns 51008 (0000ms, 0565ms total)
T2A68 000:593 JLINK_GetFirmwareString(...) (0000ms, 0565ms total)
T2A68 000:613 JLINK_GetDLLVersion()  returns 51008 (0000ms, 0565ms total)
T2A68 000:613 JLINK_GetCompileDateTime() (0000ms, 0565ms total)
T2A68 000:617 JLINK_GetFirmwareString(...) (0001ms, 0566ms total)
T2A68 000:622 JLINK_GetHardwareVersion()  returns 0x16F30 (0000ms, 0566ms total)
T2A68 000:637 JLINK_TIF_Select(JLINKARM_TIF_SWD)  returns 0x00 (0001ms, 0567ms total)
T2A68 000:638 JLINK_SetSpeed(5000) (0000ms, 0567ms total)
T2A68 000:638 JLINK_GetId() >0x108 TIF>Found SWD-DP with ID 0x1BA01477 >0x0D TIF> >0x28 TIF> >0x0D TIF> >0x28 TIF> >0x0D TIF> >0x28 TIF> >0x0D TIF> >0x28 TIF> >0x0D TIF> >0x21 TIF> >0x0D TIF> >0x28 TIF> >0x0D TIF> >0x28 TIF> >0x0D TIF> >0x28 TIF> >0x0D TIF> >0x21 TIF> >0x0D TIF> >0x21 TIF> >0x0D TIF> >0x28 TIF> >0x0D TIF> >0x21 TIF> >0x0D TIF> >0x21 TIF> >0x0D TIF> >0x28 TIF> >0x0D TIF> >0x21 TIF> >0x0D TIF> >0x21 TIF> >0x0D TIF> >0x28 TIF> >0x0D TIF> >0x21 TIF> >0x0D TIF> >0x21 TIF> >0x108 TIF>
Found SWD-DP with ID 0x1BA01477 >0x0D TIF> >0x28 TIF> >0x0D TIF> >0x28 TIF> >0x0D TIF> >0x28 TIF> >0x0D TIF> >0x28 TIF> >0x0D TIF> >0x21 TIF> >0x0D TIF> >0x28 TIF> >0x0D TIF> >0x28 TIF> >0x0D TIF> >0x21 TIF> >0x0D TIF> >0x21 TIF> >0x0D TIF> >0x21 TIF> >0x0D TIF> >0x28 TIF> >0x0D TIF> >0x28 TIF> >0x0D TIF> >0x28 TIF> >0x0D TIF> >0x21 TIF> >0x0D TIF> >0x21 TIF> >0x0D TIF> >0x28 TIF> >0x0D TIF> >0x21 TIF> >0x0D TIF> >0x21 TIF>Found Cortex-M3 r1p1, Little endian. -- CPU_ReadMem(4 bytes @ 0xE000EDF0)
 -- CPU_ReadMem(4 bytes @ 0xE0002000)FPUnit: 6 code (BP) slots and 2 literal slots -- CPU_ReadMem(4 bytes @ 0xE000EDFC) -- CPU_ReadMem(4 bytes @ 0xE0001000) -- CPU_WriteMem(4 bytes @ 0xE0001000) -- CPU_ReadMem(4 bytes @ 0xE000ED88) -- CPU_WriteMem(4 bytes @ 0xE000ED88) -- CPU_ReadMem(4 bytes @ 0xE000ED88) -- CPU_WriteMem(4 bytes @ 0xE000ED88)CoreSight components:ROMTbl 0 @ E00FF000 -- CPU_ReadMem(16 bytes @ 0xE00FF000) -- CPU_ReadMem(16 bytes @ 0xE000EFF0) -- CPU_ReadMem(16 bytes @ 0xE000EFE0)
ROMTbl 0 [0]: FFF0F000, CID: B105E00D, PID: 001BB000 SCS -- CPU_ReadMem(16 bytes @ 0xE0001FF0) -- CPU_ReadMem(16 bytes @ 0xE0001FE0)ROMTbl 0 [1]: FFF02000, CID: B105E00D, PID: 001BB002 DWT -- CPU_ReadMem(16 bytes @ 0xE0002FF0) -- CPU_ReadMem(16 bytes @ 0xE0002FE0)ROMTbl 0 [2]: FFF03000, CID: B105E00D, PID: 000BB003 FPB -- CPU_ReadMem(16 bytes @ 0xE0000FF0) -- CPU_ReadMem(16 bytes @ 0xE0000FE0)ROMTbl 0 [3]: FFF01000, CID: B105E00D, PID: 001BB001 ITM -- CPU_ReadMem(16 bytes @ 0xE00FF010)
 -- CPU_ReadMem(16 bytes @ 0xE0040FF0) -- CPU_ReadMem(16 bytes @ 0xE0040FE0)ROMTbl 0 [4]: FFF41000, CID: B105900D, PID: 001BB923 TPIU-Lite -- CPU_ReadMem(16 bytes @ 0xE0041FF0) -- CPU_ReadMem(16 bytes @ 0xE0041FE0)ROMTbl 0 [5]: FFF42000, CID: B105900D, PID: 101BB924 ETM-M3 >0x0D TIF> >0x21 TIF>  returns 0x1BA01477 (0077ms, 0644ms total)
T2A68 000:715 JLINK_GetDLLVersion()  returns 51008 (0000ms, 0644ms total)
T2A68 000:715 JLINK_CORE_GetFound()  returns 0x30000FF (0000ms, 0644ms total)
T2A68 000:715 JLINK_GetDebugInfo(0x100) -- Value=0xE00FF000  returns 0x00 (0000ms, 0644ms total)
T2A68 000:721 JLINK_GetDebugInfo(0x100) -- Value=0xE00FF000  returns 0x00 (0000ms, 0644ms total)
T2A68 000:721 JLINK_GetDebugInfo(0x101) -- Value=0xE0041000  returns 0x00 (0000ms, 0644ms total)
T2A68 000:721 JLINK_GetDebugInfo(0x102) -- Value=0x00000000  returns 0x00 (0000ms, 0644ms total)
T2A68 000:721 JLINK_GetDebugInfo(0x103) -- Value=0xE0040000  returns 0x00 (0001ms, 0645ms total)
T2A68 000:722 JLINK_GetDebugInfo(0x104) -- Value=0xE0000000  returns 0x00 (0000ms, 0645ms total)
T2A68 000:722 JLINK_GetDebugInfo(0x105) -- Value=0xE0001000  returns 0x00 (0000ms, 0645ms total)
T2A68 000:722 JLINK_GetDebugInfo(0x106) -- Value=0xE0002000  returns 0x00 (0000ms, 0645ms total)
T2A68 000:722 JLINK_GetDebugInfo(0x107) -- Value=0xE000E000  returns 0x00 (0000ms, 0645ms total)
T2A68 000:722 JLINK_GetDebugInfo(0x10C) -- Value=0xE000EDF0  returns 0x00 (0000ms, 0645ms total)
T2A68 000:722 JLINK_ReadMemU32(0xE000ED00, 0x0001 Items, ...) -- CPU is running -- CPU_ReadMem(4 bytes @ 0xE000ED00) - Data: 31 C2 1F 41  returns 0x01 (0001ms, 0646ms total)
T2A68 000:723 JLINK_SetResetType(JLINKARM_RESET_TYPE_NORMAL)  returns JLINKARM_RESET_TYPE_NORMAL (0000ms, 0646ms total)
T2A68 000:723 JLINK_Reset() -- CPU is running -- CPU_WriteMem(4 bytes @ 0xE000EDF0) -- CPU is running -- CPU_WriteMem(4 bytes @ 0xE000EDFC) >0x35 TIF> -- CPU is running -- CPU_WriteMem(4 bytes @ 0xE000ED0C) -- CPU is running -- CPU_ReadMem(4 bytes @ 0xE000EDF0) -- CPU is running -- CPU_ReadMem(4 bytes @ 0xE000EDF0) -- CPU is running -- CPU_WriteMem(4 bytes @ 0xE000EDF0) -- CPU is running -- CPU_WriteMem(4 bytes @ 0xE000EDFC) -- CPU is running -- CPU_ReadMem(4 bytes @ 0xE000EDF0)
 -- CPU_WriteMem(4 bytes @ 0xE0002000) -- CPU_ReadMem(4 bytes @ 0xE000EDFC) -- CPU_ReadMem(4 bytes @ 0xE0001000) (0015ms, 0661ms total)
T2A68 000:738 JLINK_Halt()  returns 0x00 (0001ms, 0662ms total)
T2A68 000:739 JLINK_IsHalted()  returns TRUE (0000ms, 0662ms total)
T2A68 000:739 JLINK_ReadMemU32(0xE000EDF0, 0x0001 Items, ...) -- CPU_ReadMem(4 bytes @ 0xE000EDF0) - Data: 03 00 03 00  returns 0x01 (0000ms, 0662ms total)
T2A68 000:739 JLINK_WriteU32(0xE000EDF0, 0xA05F0003) -- CPU_WriteMem(4 bytes @ 0xE000EDF0)  returns 0x00 (0001ms, 0663ms total)
T2A68 000:740 JLINK_WriteU32(0xE000EDFC, 0x01000000) -- CPU_WriteMem(4 bytes @ 0xE000EDFC)  returns 0x00 (0000ms, 0663ms total)
T2A68 000:756 JLINK_GetHWStatus(...)  returns 0x00 (0000ms, 0663ms total)
T2A68 000:768 JLINK_GetNumBPUnits(Type = 0xFFFFFF00)  returns 0x06 (0000ms, 0663ms total)
T2A68 000:768 JLINK_GetNumBPUnits(Type = 0xF0)  returns 0x2000 (0000ms, 0663ms total)
T2A68 000:768 JLINK_GetNumWPUnits()  returns 0x04 (0000ms, 0663ms total)
T2A68 000:781 JLINK_GetSpeed()  returns 0xFA0 (0000ms, 0663ms total)
T2A68 000:793 JLINK_ReadMemU32(0xE000E004, 0x0001 Items, ...) -- CPU_ReadMem(4 bytes @ 0xE000E004) - Data: 01 00 00 00  returns 0x01 (0000ms, 0663ms total)
T2A68 000:793 JLINK_ReadMemU32(0xE000E004, 0x0001 Items, ...) -- CPU_ReadMem(4 bytes @ 0xE000E004) - Data: 01 00 00 00  returns 0x01 (0000ms, 0663ms total)
T2A68 000:793 JLINK_WriteMem(0xE0001000, 0x001C Bytes, ...) - Data: 01 00 00 00 00 00 00 00 00 00 00 00 00 00 00 00 ... -- CPU_WriteMem(28 bytes @ 0xE0001000)  returns 0x1C (0001ms, 0664ms total)
T2A68 000:794 JLINK_ReadMem (0xE0001000, 0x001C Bytes, ...) -- CPU_ReadMem(28 bytes @ 0xE0001000) - Data: 01 00 00 40 00 00 00 00 00 00 00 00 00 00 00 00 ...  returns 0x00 (0001ms, 0665ms total)
T2A68 000:795 JLINK_Halt()  returns 0x00 (0000ms, 0665ms total)
T2A68 000:795 JLINK_IsHalted()  returns TRUE (0000ms, 0665ms total)
T2A68 000:798 JLINK_WriteMem(0x20000000, 0x0164 Bytes, ...) - Data: 00 BE 0A E0 0D 78 2D 06 68 40 08 24 40 00 00 D3 ... -- CPU_WriteMem(356 bytes @ 0x20000000)  returns 0x164 (0002ms, 0667ms total)
T2A68 000:800 JLINK_WriteReg(R0, 0x08000000)  returns 0x00 (0000ms, 0667ms total)
T2A68 000:800 JLINK_WriteReg(R1, 0x007A1200)  returns 0x00 (0000ms, 0667ms total)
T2A68 000:800 JLINK_WriteReg(R2, 0x00000001)  returns 0x00 (0001ms, 0668ms total)
T2A68 000:801 JLINK_WriteReg(R3, 0x00000000)  returns 0x00 (0000ms, 0668ms total)
T2A68 000:801 JLINK_WriteReg(R4, 0x00000000)  returns 0x00 (0000ms, 0668ms total)
T2A68 000:801 JLINK_WriteReg(R5, 0x00000000)  returns 0x00 (0000ms, 0668ms total)
T2A68 000:801 JLINK_WriteReg(R6, 0x00000000)  returns 0x00 (0000ms, 0668ms total)
T2A68 000:801 JLINK_WriteReg(R7, 0x00000000)  returns 0x00 (0000ms, 0668ms total)
T2A68 000:801 JLINK_WriteReg(R8, 0x00000000)  returns 0x00 (0000ms, 0668ms total)
T2A68 000:801 JLINK_WriteReg(R9, 0x20000160)  returns 0x00 (0001ms, 0669ms total)
T2A68 000:802 JLINK_WriteReg(R10, 0x00000000)  returns 0x00 (0000ms, 0669ms total)
T2A68 000:802 JLINK_WriteReg(R11, 0x00000000)  returns 0x00 (0000ms, 0669ms total)
T2A68 000:802 JLINK_WriteReg(R12, 0x00000000)  returns 0x00 (0000ms, 0669ms total)
T2A68 000:802 JLINK_WriteReg(R13 (SP), 0x20001000)  returns 0x00 (0000ms, 0669ms total)
T2A68 000:802 JLINK_WriteReg(R14, 0x20000001)  returns 0x00 (0000ms, 0669ms total)
T2A68 000:802 JLINK_WriteReg(R15 (PC), 0x20000038)  returns 0x00 (0000ms, 0669ms total)
T2A68 000:803 JLINK_WriteReg(XPSR, 0x01000000)  returns 0x00 (0000ms, 0669ms total)
T2A68 000:803 JLINK_WriteReg(MSP, 0x20001000)  returns 0x00 (0000ms, 0669ms total)
T2A68 000:803 JLINK_WriteReg(PSP, 0x20001000)  returns 0x00 (0000ms, 0669ms total)
T2A68 000:803 JLINK_WriteReg(CFBP, 0x00000000)  returns 0x00 (0000ms, 0669ms total)
T2A68 000:803 JLINK_SetBPEx(Addr = 0x20000000, Type = 0xFFFFFFF2) -- CPU_ReadMem(2 bytes @ 0x20000000)  returns 0x00000001 (0000ms, 0669ms total)
T2A68 000:804 JLINK_Go() -- CPU_WriteMem(2 bytes @ 0x20000000) -- CPU_ReadMem(4 bytes @ 0xE0001000) -- CPU_WriteMem(4 bytes @ 0xE0002008) -- CPU_WriteMem(4 bytes @ 0xE000200C) -- CPU_WriteMem(4 bytes @ 0xE0002010) -- CPU_WriteMem(4 bytes @ 0xE0002014) -- CPU_WriteMem(4 bytes @ 0xE0002018) -- CPU_WriteMem(4 bytes @ 0xE000201C) -- CPU_WriteMem(4 bytes @ 0xE0001004) (0002ms, 0672ms total)
T2A68 000:807 JLINK_IsHalted() -- CPU_ReadMem(2 bytes @ 0x20000000)  returns TRUE (0002ms, 0675ms total)
T2A68 000:809 JLINK_ReadReg(R15 (PC))  returns 0x20000000 (0000ms, 0673ms total)
T2A68 000:809 JLINK_ClrBPEx(BPHandle = 0x00000001)  returns 0x00 (0000ms, 0673ms total)
T2A68 000:809 JLINK_ReadReg(R0)  returns 0x00000000 (0000ms, 0673ms total)
T2A68 000:810 JLINK_WriteReg(R0, 0x08000000)  returns 0x00 (0000ms, 0673ms total)
T2A68 000:810 JLINK_WriteReg(R1, 0x007A1200)  returns 0x00 (0000ms, 0673ms total)
T2A68 000:810 JLINK_WriteReg(R2, 0x00000001)  returns 0x00 (0000ms, 0673ms total)
T2A68 000:810 JLINK_WriteReg(R3, 0x00000000)  returns 0x00 (0000ms, 0673ms total)
T2A68 000:810 JLINK_WriteReg(R4, 0x00000000)  returns 0x00 (0000ms, 0673ms total)
T2A68 000:810 JLINK_WriteReg(R5, 0x00000000)  returns 0x00 (0000ms, 0673ms total)
T2A68 000:811 JLINK_WriteReg(R6, 0x00000000)  returns 0x00 (0000ms, 0674ms total)
T2A68 000:811 JLINK_WriteReg(R7, 0x00000000)  returns 0x00 (0000ms, 0674ms total)
T2A68 000:811 JLINK_WriteReg(R8, 0x00000000)  returns 0x00 (0000ms, 0674ms total)
T2A68 000:811 JLINK_WriteReg(R9, 0x20000160)  returns 0x00 (0000ms, 0674ms total)
T2A68 000:811 JLINK_WriteReg(R10, 0x00000000)  returns 0x00 (0000ms, 0674ms total)
T2A68 000:811 JLINK_WriteReg(R11, 0x00000000)  returns 0x00 (0000ms, 0674ms total)
T2A68 000:811 JLINK_WriteReg(R12, 0x00000000)  returns 0x00 (0001ms, 0675ms total)
T2A68 000:812 JLINK_WriteReg(R13 (SP), 0x20001000)  returns 0x00 (0000ms, 0675ms total)
T2A68 000:812 JLINK_WriteReg(R14, 0x20000001)  returns 0x00 (0000ms, 0675ms total)
T2A68 000:812 JLINK_WriteReg(R15 (PC), 0x2000007C)  returns 0x00 (0000ms, 0675ms total)
T2A68 000:812 JLINK_WriteReg(XPSR, 0x01000000)  returns 0x00 (0000ms, 0675ms total)
T2A68 000:812 JLINK_WriteReg(MSP, 0x20001000)  returns 0x00 (0000ms, 0675ms total)
T2A68 000:812 JLINK_WriteReg(PSP, 0x20001000)  returns 0x00 (0000ms, 0675ms total)
T2A68 000:812 JLINK_WriteReg(CFBP, 0x00000000)  returns 0x00 (0001ms, 0676ms total)
T2A68 000:813 JLINK_SetBPEx(Addr = 0x20000000, Type = 0xFFFFFFF2)  returns 0x00000002 (0000ms, 0676ms total)
T2A68 000:813 JLINK_Go() -- CPU_ReadMem(4 bytes @ 0xE0001000) (0001ms, 0677ms total)
T2A68 000:814 JLINK_IsHalted()  returns FALSE (0000ms, 0677ms total)
T2A68 000:891 JLINK_IsHalted() -- CPU_ReadMem(2 bytes @ 0x20000000)  returns TRUE (0002ms, 0679ms total)
T2A68 000:893 JLINK_ReadReg(R15 (PC))  returns 0x20000000 (0000ms, 0677ms total)
T2A68 000:893 JLINK_ClrBPEx(BPHandle = 0x00000002)  returns 0x00 (0000ms, 0677ms total)
T2A68 000:893 JLINK_ReadReg(R0)  returns 0x00000000 (0000ms, 0677ms total)
T2A68 000:947 JLINK_WriteReg(R0, 0x00000001)  returns 0x00 (0001ms, 0678ms total)
T2A68 000:948 JLINK_WriteReg(R1, 0x007A1200)  returns 0x00 (0001ms, 0679ms total)
T2A68 000:949 JLINK_WriteReg(R2, 0x00000001)  returns 0x00 (0000ms, 0679ms total)
T2A68 000:949 JLINK_WriteReg(R3, 0x00000000)  returns 0x00 (0001ms, 0680ms total)
T2A68 000:950 JLINK_WriteReg(R4, 0x00000000)  returns 0x00 (0001ms, 0681ms total)
T2A68 000:951 JLINK_WriteReg(R5, 0x00000000)  returns 0x00 (0000ms, 0681ms total)
T2A68 000:951 JLINK_WriteReg(R6, 0x00000000)  returns 0x00 (0001ms, 0682ms total)
T2A68 000:952 JLINK_WriteReg(R7, 0x00000000)  returns 0x00 (0000ms, 0682ms total)
T2A68 000:953 JLINK_WriteReg(R8, 0x00000000)  returns 0x00 (0000ms, 0682ms total)
T2A68 000:953 JLINK_WriteReg(R9, 0x20000160)  returns 0x00 (0001ms, 0683ms total)
T2A68 000:954 JLINK_WriteReg(R10, 0x00000000)  returns 0x00 (0000ms, 0683ms total)
T2A68 000:954 JLINK_WriteReg(R11, 0x00000000)  returns 0x00 (0001ms, 0684ms total)
T2A68 000:955 JLINK_WriteReg(R12, 0x00000000)  returns 0x00 (0000ms, 0684ms total)
T2A68 000:956 JLINK_WriteReg(R13 (SP), 0x20001000)  returns 0x00 (0000ms, 0685ms total)
T2A68 000:956 JLINK_WriteReg(R14, 0x20000001)  returns 0x00 (0000ms, 0685ms total)
T2A68 000:956 JLINK_WriteReg(R15 (PC), 0x2000006A)  returns 0x00 (0000ms, 0685ms total)
T2A68 000:956 JLINK_WriteReg(XPSR, 0x01000000)  returns 0x00 (0000ms, 0685ms total)
T2A68 000:956 JLINK_WriteReg(MSP, 0x20001000)  returns 0x00 (0000ms, 0685ms total)
T2A68 000:956 JLINK_WriteReg(PSP, 0x20001000)  returns 0x00 (0001ms, 0686ms total)
T2A68 000:957 JLINK_WriteReg(CFBP, 0x00000000)  returns 0x00 (0000ms, 0686ms total)
T2A68 000:957 JLINK_SetBPEx(Addr = 0x20000000, Type = 0xFFFFFFF2)  returns 0x00000003 (0000ms, 0686ms total)
T2A68 000:957 JLINK_Go() -- CPU_ReadMem(4 bytes @ 0xE0001000) (0001ms, 0687ms total)
T2A68 000:958 JLINK_IsHalted() -- CPU_ReadMem(2 bytes @ 0x20000000)  returns TRUE (0002ms, 0689ms total)
T2A68 000:960 JLINK_ReadReg(R15 (PC))  returns 0x20000000 (0000ms, 0687ms total)
T2A68 000:960 JLINK_ClrBPEx(BPHandle = 0x00000003)  returns 0x00 (0001ms, 0688ms total)
T2A68 000:961 JLINK_ReadReg(R0)  returns 0x00000000 (0000ms, 0688ms total)
T2A68 000:971 JLINK_WriteMem(0x20000000, 0x0164 Bytes, ...) - Data: 00 BE 0A E0 0D 78 2D 06 68 40 08 24 40 00 00 D3 ... -- CPU_WriteMem(356 bytes @ 0x20000000)  returns 0x164 (0002ms, 0690ms total)
T2A68 000:973 JLINK_WriteReg(R0, 0x08000000)  returns 0x00 (0000ms, 0690ms total)
T2A68 000:973 JLINK_WriteReg(R1, 0x007A1200)  returns 0x00 (0000ms, 0690ms total)
T2A68 000:973 JLINK_WriteReg(R2, 0x00000002)  returns 0x00 (0000ms, 0690ms total)
T2A68 000:973 JLINK_WriteReg(R3, 0x00000000)  returns 0x00 (0000ms, 0690ms total)
T2A68 000:973 JLINK_WriteReg(R4, 0x00000000)  returns 0x00 (0001ms, 0691ms total)
T2A68 000:974 JLINK_WriteReg(R5, 0x00000000)  returns 0x00 (0000ms, 0691ms total)
T2A68 000:974 JLINK_WriteReg(R6, 0x00000000)  returns 0x00 (0000ms, 0691ms total)
T2A68 000:974 JLINK_WriteReg(R7, 0x00000000)  returns 0x00 (0000ms, 0691ms total)
T2A68 000:974 JLINK_WriteReg(R8, 0x00000000)  returns 0x00 (0000ms, 0691ms total)
T2A68 000:974 JLINK_WriteReg(R9, 0x20000160)  returns 0x00 (0000ms, 0691ms total)
T2A68 000:974 JLINK_WriteReg(R10, 0x00000000)  returns 0x00 (0001ms, 0692ms total)
T2A68 000:975 JLINK_WriteReg(R11, 0x00000000)  returns 0x00 (0000ms, 0692ms total)
T2A68 000:975 JLINK_WriteReg(R12, 0x00000000)  returns 0x00 (0000ms, 0692ms total)
T2A68 000:975 JLINK_WriteReg(R13 (SP), 0x20001000)  returns 0x00 (0000ms, 0692ms total)
T2A68 000:975 JLINK_WriteReg(R14, 0x20000001)  returns 0x00 (0000ms, 0692ms total)
T2A68 000:975 JLINK_WriteReg(R15 (PC), 0x20000038)  returns 0x00 (0000ms, 0692ms total)
T2A68 000:975 JLINK_WriteReg(XPSR, 0x01000000)  returns 0x00 (0000ms, 0692ms total)
T2A68 000:975 JLINK_WriteReg(MSP, 0x20001000)  returns 0x00 (0001ms, 0693ms total)
T2A68 000:976 JLINK_WriteReg(PSP, 0x20001000)  returns 0x00 (0000ms, 0693ms total)
T2A68 000:976 JLINK_WriteReg(CFBP, 0x00000000)  returns 0x00 (0000ms, 0693ms total)
T2A68 000:976 JLINK_SetBPEx(Addr = 0x20000000, Type = 0xFFFFFFF2) -- CPU_ReadMem(2 bytes @ 0x20000000)  returns 0x00000004 (0000ms, 0693ms total)
T2A68 000:976 JLINK_Go() -- CPU_WriteMem(2 bytes @ 0x20000000) -- CPU_ReadMem(4 bytes @ 0xE0001000) (0002ms, 0695ms total)
T2A68 000:978 JLINK_IsHalted() -- CPU_ReadMem(2 bytes @ 0x20000000)  returns TRUE (0002ms, 0697ms total)
T2A68 000:980 JLINK_ReadReg(R15 (PC))  returns 0x20000000 (0000ms, 0695ms total)
T2A68 000:980 JLINK_ClrBPEx(BPHandle = 0x00000004)  returns 0x00 (0000ms, 0695ms total)
T2A68 000:980 JLINK_ReadReg(R0)  returns 0x00000000 (0001ms, 0696ms total)
T2A68 000:981 JLINK_WriteMem(0x20000164, 0x0400 Bytes, ...) - Data: 60 1B 00 20 45 01 00 08 15 2E 00 08 3D 20 00 08 ... -- CPU_WriteMem(1024 bytes @ 0x20000164)  returns 0x400 (0004ms, 0700ms total)
T2A68 000:985 JLINK_WriteReg(R0, 0x08000000)  returns 0x00 (0000ms, 0700ms total)
T2A68 000:985 JLINK_WriteReg(R1, 0x00000400)  returns 0x00 (0001ms, 0701ms total)
T2A68 000:986 JLINK_WriteReg(R2, 0x20000164)  returns 0x00 (0000ms, 0701ms total)
T2A68 000:986 JLINK_WriteReg(R3, 0x00000000)  returns 0x00 (0001ms, 0702ms total)
T2A68 000:987 JLINK_WriteReg(R4, 0x00000000)  returns 0x00 (0000ms, 0702ms total)
T2A68 000:987 JLINK_WriteReg(R5, 0x00000000)  returns 0x00 (0001ms, 0703ms total)
T2A68 000:988 JLINK_WriteReg(R6, 0x00000000)  returns 0x00 (0000ms, 0703ms total)
T2A68 000:988 JLINK_WriteReg(R7, 0x00000000)  returns 0x00 (0001ms, 0704ms total)
T2A68 000:989 JLINK_WriteReg(R8, 0x00000000)  returns 0x00 (0000ms, 0704ms total)
T2A68 000:989 JLINK_WriteReg(R9, 0x20000160)  returns 0x00 (0001ms, 0705ms total)
T2A68 000:990 JLINK_WriteReg(R10, 0x00000000)  returns 0x00 (0000ms, 0705ms total)
T2A68 000:990 JLINK_WriteReg(R11, 0x00000000)  returns 0x00 (0000ms, 0705ms total)
T2A68 000:990 JLINK_WriteReg(R12, 0x00000000)  returns 0x00 (0001ms, 0706ms total)
T2A68 000:991 JLINK_WriteReg(R13 (SP), 0x20001000)  returns 0x00 (0000ms, 0706ms total)
T2A68 000:991 JLINK_WriteReg(R14, 0x20000001)  returns 0x00 (0000ms, 0706ms total)
T2A68 000:991 JLINK_WriteReg(R15 (PC), 0x200000F4)  returns 0x00 (0001ms, 0707ms total)
T2A68 000:992 JLINK_WriteReg(XPSR, 0x01000000)  returns 0x00 (0000ms, 0707ms total)
T2A68 000:992 JLINK_WriteReg(MSP, 0x20001000)  returns 0x00 (0000ms, 0707ms total)
T2A68 000:992 JLINK_WriteReg(PSP, 0x20001000)  returns 0x00 (0001ms, 0708ms total)
T2A68 000:993 JLINK_WriteReg(CFBP, 0x00000000)  returns 0x00 (0000ms, 0708ms total)
T2A68 000:993 JLINK_SetBPEx(Addr = 0x20000000, Type = 0xFFFFFFF2)  returns 0x00000005 (0000ms, 0708ms total)
T2A68 000:994 JLINK_Go() -- CPU_ReadMem(4 bytes @ 0xE0001000) (0001ms, 0710ms total)
T2A68 000:995 JLINK_IsHalted()  returns FALSE (0000ms, 0710ms total)
T2A68 001:050 JLINK_IsHalted() -- CPU_ReadMem(2 bytes @ 0x20000000)  returns TRUE (0002ms, 0712ms total)
T2A68 001:052 JLINK_ReadReg(R15 (PC))  returns 0x20000000 (0000ms, 0710ms total)
T2A68 001:052 JLINK_ClrBPEx(BPHandle = 0x00000005)  returns 0x00 (0000ms, 0710ms total)
T2A68 001:052 JLINK_ReadReg(R0)  returns 0x00000000 (0000ms, 0710ms total)
T2A68 001:053 JLINK_WriteMem(0x20000164, 0x0400 Bytes, ...) - Data: 01 02 06 D0 0A 0D A2 F5 60 72 C1 F3 13 01 00 2A ... -- CPU_WriteMem(1024 bytes @ 0x20000164)  returns 0x400 (0004ms, 0714ms total)
T2A68 001:057 JLINK_WriteReg(R0, 0x08000400)  returns 0x00 (0000ms, 0714ms total)
T2A68 001:057 JLINK_WriteReg(R1, 0x00000400)  returns 0x00 (0000ms, 0714ms total)
T2A68 001:057 JLINK_WriteReg(R2, 0x20000164)  returns 0x00 (0000ms, 0714ms total)
T2A68 001:057 JLINK_WriteReg(R3, 0x00000000)  returns 0x00 (0000ms, 0714ms total)
T2A68 001:057 JLINK_WriteReg(R4, 0x00000000)  returns 0x00 (0000ms, 0714ms total)
T2A68 001:057 JLINK_WriteReg(R5, 0x00000000)  returns 0x00 (0001ms, 0715ms total)
T2A68 001:058 JLINK_WriteReg(R6, 0x00000000)  returns 0x00 (0000ms, 0715ms total)
T2A68 001:058 JLINK_WriteReg(R7, 0x00000000)  returns 0x00 (0000ms, 0715ms total)
T2A68 001:058 JLINK_WriteReg(R8, 0x00000000)  returns 0x00 (0000ms, 0715ms total)
T2A68 001:058 JLINK_WriteReg(R9, 0x20000160)  returns 0x00 (0000ms, 0715ms total)
T2A68 001:058 JLINK_WriteReg(R10, 0x00000000)  returns 0x00 (0000ms, 0715ms total)
T2A68 001:058 JLINK_WriteReg(R11, 0x00000000)  returns 0x00 (0000ms, 0715ms total)
T2A68 001:058 JLINK_WriteReg(R12, 0x00000000)  returns 0x00 (0001ms, 0716ms total)
T2A68 001:059 JLINK_WriteReg(R13 (SP), 0x20001000)  returns 0x00 (0000ms, 0716ms total)
T2A68 001:059 JLINK_WriteReg(R14, 0x20000001)  returns 0x00 (0000ms, 0716ms total)
T2A68 001:059 JLINK_WriteReg(R15 (PC), 0x200000F4)  returns 0x00 (0000ms, 0716ms total)
T2A68 001:059 JLINK_WriteReg(XPSR, 0x01000000)  returns 0x00 (0000ms, 0716ms total)
T2A68 001:059 JLINK_WriteReg(MSP, 0x20001000)  returns 0x00 (0000ms, 0716ms total)
T2A68 001:059 JLINK_WriteReg(PSP, 0x20001000)  returns 0x00 (0000ms, 0716ms total)
T2A68 001:060 JLINK_WriteReg(CFBP, 0x00000000)  returns 0x00 (0000ms, 0717ms total)
T2A68 001:060 JLINK_SetBPEx(Addr = 0x20000000, Type = 0xFFFFFFF2)  returns 0x00000006 (0000ms, 0717ms total)
T2A68 001:060 JLINK_Go() -- CPU_ReadMem(4 bytes @ 0xE0001000) (0001ms, 0718ms total)
T2A68 001:061 JLINK_IsHalted()  returns FALSE (0000ms, 0718ms total)
T2A68 001:073 JLINK_IsHalted()  returns FALSE (0000ms, 0718ms total)
T2A68 001:075 JLINK_IsHalted()  returns FALSE (0000ms, 0718ms total)
T2A68 001:083 JLINK_IsHalted()  returns FALSE (0000ms, 0718ms total)
T2A68 001:085 JLINK_IsHalted()  returns FALSE (0000ms, 0718ms total)
T2A68 001:087 JLINK_IsHalted()  returns FALSE (0000ms, 0718ms total)
T2A68 001:089 JLINK_IsHalted()  returns FALSE (0000ms, 0718ms total)
T2A68 001:098 JLINK_IsHalted() -- CPU_ReadMem(2 bytes @ 0x20000000)  returns TRUE (0002ms, 0720ms total)
T2A68 001:100 JLINK_ReadReg(R15 (PC))  returns 0x20000000 (0000ms, 0718ms total)
T2A68 001:100 JLINK_ClrBPEx(BPHandle = 0x00000006)  returns 0x00 (0000ms, 0718ms total)
T2A68 001:100 JLINK_ReadReg(R0)  returns 0x00000000 (0000ms, 0718ms total)
T2A68 001:102 JLINK_WriteMem(0x20000164, 0x0400 Bytes, ...) - Data: 40 F4 80 15 43 F4 80 13 A7 EB 06 08 10 1B D6 46 ... -- CPU_WriteMem(1024 bytes @ 0x20000164)  returns 0x400 (0004ms, 0722ms total)
T2A68 001:106 JLINK_WriteReg(R0, 0x08000800)  returns 0x00 (0000ms, 0722ms total)
T2A68 001:106 JLINK_WriteReg(R1, 0x00000400)  returns 0x00 (0000ms, 0722ms total)
T2A68 001:106 JLINK_WriteReg(R2, 0x20000164)  returns 0x00 (0000ms, 0722ms total)
T2A68 001:106 JLINK_WriteReg(R3, 0x00000000)  returns 0x00 (0001ms, 0723ms total)
T2A68 001:107 JLINK_WriteReg(R4, 0x00000000)  returns 0x00 (0000ms, 0723ms total)
T2A68 001:107 JLINK_WriteReg(R5, 0x00000000)  returns 0x00 (0000ms, 0723ms total)
T2A68 001:107 JLINK_WriteReg(R6, 0x00000000)  returns 0x00 (0000ms, 0723ms total)
T2A68 001:107 JLINK_WriteReg(R7, 0x00000000)  returns 0x00 (0000ms, 0723ms total)
T2A68 001:107 JLINK_WriteReg(R8, 0x00000000)  returns 0x00 (0000ms, 0723ms total)
T2A68 001:107 JLINK_WriteReg(R9, 0x20000160)  returns 0x00 (0000ms, 0723ms total)
T2A68 001:108 JLINK_WriteReg(R10, 0x00000000)  returns 0x00 (0000ms, 0724ms total)
T2A68 001:108 JLINK_WriteReg(R11, 0x00000000)  returns 0x00 (0000ms, 0724ms total)
T2A68 001:108 JLINK_WriteReg(R12, 0x00000000)  returns 0x00 (0000ms, 0724ms total)
T2A68 001:108 JLINK_WriteReg(R13 (SP), 0x20001000)  returns 0x00 (0000ms, 0724ms total)
T2A68 001:108 JLINK_WriteReg(R14, 0x20000001)  returns 0x00 (0000ms, 0724ms total)
T2A68 001:108 JLINK_WriteReg(R15 (PC), 0x200000F4)  returns 0x00 (0000ms, 0724ms total)
T2A68 001:108 JLINK_WriteReg(XPSR, 0x01000000)  returns 0x00 (0001ms, 0725ms total)
T2A68 001:109 JLINK_WriteReg(MSP, 0x20001000)  returns 0x00 (0000ms, 0725ms total)
T2A68 001:109 JLINK_WriteReg(PSP, 0x20001000)  returns 0x00 (0000ms, 0725ms total)
T2A68 001:109 JLINK_WriteReg(CFBP, 0x00000000)  returns 0x00 (0000ms, 0725ms total)
T2A68 001:109 JLINK_SetBPEx(Addr = 0x20000000, Type = 0xFFFFFFF2)  returns 0x00000007 (0000ms, 0725ms total)
T2A68 001:109 JLINK_Go() -- CPU_ReadMem(4 bytes @ 0xE0001000) (0001ms, 0726ms total)
T2A68 001:111 JLINK_IsHalted()  returns FALSE (0000ms, 0727ms total)
T2A68 001:123 JLINK_IsHalted()  returns FALSE (0000ms, 0727ms total)
T2A68 001:125 JLINK_IsHalted()  returns FALSE (0000ms, 0727ms total)
T2A68 001:127 JLINK_IsHalted()  returns FALSE (0000ms, 0727ms total)
T2A68 001:129 JLINK_IsHalted()  returns FALSE (0000ms, 0727ms total)
T2A68 001:131 JLINK_IsHalted()  returns FALSE (0000ms, 0727ms total)
T2A68 001:133 JLINK_IsHalted()  returns FALSE (0000ms, 0727ms total)
T2A68 001:141 JLINK_IsHalted()  returns FALSE (0000ms, 0727ms total)
T2A68 001:143 JLINK_IsHalted() -- CPU_ReadMem(2 bytes @ 0x20000000)  returns TRUE (0002ms, 0729ms total)
T2A68 001:145 JLINK_ReadReg(R15 (PC))  returns 0x20000000 (0000ms, 0727ms total)
T2A68 001:145 JLINK_ClrBPEx(BPHandle = 0x00000007)  returns 0x00 (0000ms, 0727ms total)
T2A68 001:145 JLINK_ReadReg(R0)  returns 0x00000000 (0000ms, 0727ms total)
T2A68 001:146 JLINK_WriteMem(0x20000164, 0x0400 Bytes, ...) - Data: 00 20 70 47 01 46 00 20 8A 68 02 F0 08 02 0A B1 ... -- CPU_WriteMem(1024 bytes @ 0x20000164)  returns 0x400 (0004ms, 0731ms total)
T2A68 001:150 JLINK_WriteReg(R0, 0x08000C00)  returns 0x00 (0000ms, 0731ms total)
T2A68 001:150 JLINK_WriteReg(R1, 0x00000400)  returns 0x00 (0000ms, 0731ms total)
T2A68 001:150 JLINK_WriteReg(R2, 0x20000164)  returns 0x00 (0000ms, 0731ms total)
T2A68 001:150 JLINK_WriteReg(R3, 0x00000000)  returns 0x00 (0000ms, 0731ms total)
T2A68 001:150 JLINK_WriteReg(R4, 0x00000000)  returns 0x00 (0000ms, 0731ms total)
T2A68 001:150 JLINK_WriteReg(R5, 0x00000000)  returns 0x00 (0000ms, 0731ms total)
T2A68 001:151 JLINK_WriteReg(R6, 0x00000000)  returns 0x00 (0000ms, 0732ms total)
T2A68 001:151 JLINK_WriteReg(R7, 0x00000000)  returns 0x00 (0000ms, 0732ms total)
T2A68 001:151 JLINK_WriteReg(R8, 0x00000000)  returns 0x00 (0000ms, 0732ms total)
T2A68 001:151 JLINK_WriteReg(R9, 0x20000160)  returns 0x00 (0000ms, 0732ms total)
T2A68 001:151 JLINK_WriteReg(R10, 0x00000000)  returns 0x00 (0000ms, 0732ms total)
T2A68 001:151 JLINK_WriteReg(R11, 0x00000000)  returns 0x00 (0000ms, 0732ms total)
T2A68 001:151 JLINK_WriteReg(R12, 0x00000000)  returns 0x00 (0001ms, 0733ms total)
T2A68 001:152 JLINK_WriteReg(R13 (SP), 0x20001000)  returns 0x00 (0000ms, 0733ms total)
T2A68 001:152 JLINK_WriteReg(R14, 0x20000001)  returns 0x00 (0000ms, 0733ms total)
T2A68 001:152 JLINK_WriteReg(R15 (PC), 0x200000F4)  returns 0x00 (0000ms, 0733ms total)
T2A68 001:152 JLINK_WriteReg(XPSR, 0x01000000)  returns 0x00 (0000ms, 0733ms total)
T2A68 001:152 JLINK_WriteReg(MSP, 0x20001000)  returns 0x00 (0000ms, 0733ms total)
T2A68 001:152 JLINK_WriteReg(PSP, 0x20001000)  returns 0x00 (0000ms, 0733ms total)
T2A68 001:152 JLINK_WriteReg(CFBP, 0x00000000)  returns 0x00 (0001ms, 0734ms total)
T2A68 001:153 JLINK_SetBPEx(Addr = 0x20000000, Type = 0xFFFFFFF2)  returns 0x00000008 (0000ms, 0734ms total)
T2A68 001:153 JLINK_Go() -- CPU_ReadMem(4 bytes @ 0xE0001000) (0001ms, 0735ms total)
T2A68 001:154 JLINK_IsHalted()  returns FALSE (0000ms, 0735ms total)
T2A68 001:161 JLINK_IsHalted()  returns FALSE (0000ms, 0735ms total)
T2A68 001:163 JLINK_IsHalted()  returns FALSE (0000ms, 0735ms total)
T2A68 001:165 JLINK_IsHalted()  returns FALSE (0000ms, 0735ms total)
T2A68 001:177 JLINK_IsHalted()  returns FALSE (0000ms, 0735ms total)
T2A68 001:179 JLINK_IsHalted()  returns FALSE (0000ms, 0735ms total)
T2A68 001:181 JLINK_IsHalted()  returns FALSE (0000ms, 0735ms total)
T2A68 001:188 JLINK_IsHalted() -- CPU_ReadMem(2 bytes @ 0x20000000)  returns TRUE (0002ms, 0737ms total)
T2A68 001:190 JLINK_ReadReg(R15 (PC))  returns 0x20000000 (0000ms, 0735ms total)
T2A68 001:190 JLINK_ClrBPEx(BPHandle = 0x00000008)  returns 0x00 (0000ms, 0735ms total)
T2A68 001:190 JLINK_ReadReg(R0)  returns 0x00000000 (0000ms, 0735ms total)
T2A68 001:191 JLINK_WriteMem(0x20000164, 0x0400 Bytes, ...) - Data: 2B D0 28 46 01 F0 70 FE 02 28 26 D1 28 46 01 F0 ... -- CPU_WriteMem(1024 bytes @ 0x20000164)  returns 0x400 (0004ms, 0739ms total)
T2A68 001:195 JLINK_WriteReg(R0, 0x08001000)  returns 0x00 (0000ms, 0739ms total)
T2A68 001:195 JLINK_WriteReg(R1, 0x00000400)  returns 0x00 (0000ms, 0739ms total)
T2A68 001:195 JLINK_WriteReg(R2, 0x20000164)  returns 0x00 (0000ms, 0739ms total)
T2A68 001:195 JLINK_WriteReg(R3, 0x00000000)  returns 0x00 (0000ms, 0739ms total)
T2A68 001:195 JLINK_WriteReg(R4, 0x00000000)  returns 0x00 (0001ms, 0740ms total)
T2A68 001:196 JLINK_WriteReg(R5, 0x00000000)  returns 0x00 (0000ms, 0740ms total)
T2A68 001:196 JLINK_WriteReg(R6, 0x00000000)  returns 0x00 (0000ms, 0740ms total)
T2A68 001:196 JLINK_WriteReg(R7, 0x00000000)  returns 0x00 (0000ms, 0740ms total)
T2A68 001:196 JLINK_WriteReg(R8, 0x00000000)  returns 0x00 (0000ms, 0740ms total)
T2A68 001:196 JLINK_WriteReg(R9, 0x20000160)  returns 0x00 (0000ms, 0740ms total)
T2A68 001:196 JLINK_WriteReg(R10, 0x00000000)  returns 0x00 (0000ms, 0740ms total)
T2A68 001:196 JLINK_WriteReg(R11, 0x00000000)  returns 0x00 (0001ms, 0741ms total)
T2A68 001:197 JLINK_WriteReg(R12, 0x00000000)  returns 0x00 (0000ms, 0741ms total)
T2A68 001:197 JLINK_WriteReg(R13 (SP), 0x20001000)  returns 0x00 (0000ms, 0741ms total)
T2A68 001:197 JLINK_WriteReg(R14, 0x20000001)  returns 0x00 (0000ms, 0741ms total)
T2A68 001:197 JLINK_WriteReg(R15 (PC), 0x200000F4)  returns 0x00 (0000ms, 0741ms total)
T2A68 001:197 JLINK_WriteReg(XPSR, 0x01000000)  returns 0x00 (0000ms, 0741ms total)
T2A68 001:197 JLINK_WriteReg(MSP, 0x20001000)  returns 0x00 (0000ms, 0741ms total)
T2A68 001:197 JLINK_WriteReg(PSP, 0x20001000)  returns 0x00 (0001ms, 0742ms total)
T2A68 001:198 JLINK_WriteReg(CFBP, 0x00000000)  returns 0x00 (0000ms, 0742ms total)
T2A68 001:198 JLINK_SetBPEx(Addr = 0x20000000, Type = 0xFFFFFFF2)  returns 0x00000009 (0000ms, 0742ms total)
T2A68 001:198 JLINK_Go() -- CPU_ReadMem(4 bytes @ 0xE0001000) (0001ms, 0743ms total)
T2A68 001:199 JLINK_IsHalted()  returns FALSE (0000ms, 0743ms total)
T2A68 001:206 JLINK_IsHalted()  returns FALSE (0000ms, 0743ms total)
T2A68 001:209 JLINK_IsHalted()  returns FALSE (0000ms, 0743ms total)
T2A68 001:212 JLINK_IsHalted()  returns FALSE (0000ms, 0743ms total)
T2A68 001:235 JLINK_IsHalted() -- CPU_ReadMem(2 bytes @ 0x20000000)  returns TRUE (0002ms, 0745ms total)
T2A68 001:237 JLINK_ReadReg(R15 (PC))  returns 0x20000000 (0000ms, 0743ms total)
T2A68 001:237 JLINK_ClrBPEx(BPHandle = 0x00000009)  returns 0x00 (0000ms, 0743ms total)
T2A68 001:237 JLINK_ReadReg(R0)  returns 0x00000000 (0000ms, 0743ms total)
T2A68 001:238 JLINK_WriteMem(0x20000164, 0x0400 Bytes, ...) - Data: 02 F0 52 FE 02 E0 6F A0 02 F0 4E FE 0E E0 38 46 ... -- CPU_WriteMem(1024 bytes @ 0x20000164)  returns 0x400 (0004ms, 0747ms total)
T2A68 001:242 JLINK_WriteReg(R0, 0x08001400)  returns 0x00 (0000ms, 0747ms total)
T2A68 001:242 JLINK_WriteReg(R1, 0x00000400)  returns 0x00 (0001ms, 0748ms total)
T2A68 001:243 JLINK_WriteReg(R2, 0x20000164)  returns 0x00 (0000ms, 0748ms total)
T2A68 001:243 JLINK_WriteReg(R3, 0x00000000)  returns 0x00 (0001ms, 0749ms total)
T2A68 001:244 JLINK_WriteReg(R4, 0x00000000)  returns 0x00 (0000ms, 0749ms total)
T2A68 001:244 JLINK_WriteReg(R5, 0x00000000)  returns 0x00 (0001ms, 0750ms total)
T2A68 001:245 JLINK_WriteReg(R6, 0x00000000)  returns 0x00 (0000ms, 0750ms total)
T2A68 001:245 JLINK_WriteReg(R7, 0x00000000)  returns 0x00 (0001ms, 0751ms total)
T2A68 001:246 JLINK_WriteReg(R8, 0x00000000)  returns 0x00 (0000ms, 0751ms total)
T2A68 001:246 JLINK_WriteReg(R9, 0x20000160)  returns 0x00 (0000ms, 0751ms total)
T2A68 001:246 JLINK_WriteReg(R10, 0x00000000)  returns 0x00 (0001ms, 0752ms total)
T2A68 001:247 JLINK_WriteReg(R11, 0x00000000)  returns 0x00 (0000ms, 0752ms total)
T2A68 001:247 JLINK_WriteReg(R12, 0x00000000)  returns 0x00 (0000ms, 0752ms total)
T2A68 001:247 JLINK_WriteReg(R13 (SP), 0x20001000)  returns 0x00 (0001ms, 0753ms total)
T2A68 001:248 JLINK_WriteReg(R14, 0x20000001)  returns 0x00 (0000ms, 0753ms total)
T2A68 001:248 JLINK_WriteReg(R15 (PC), 0x200000F4)  returns 0x00 (0000ms, 0753ms total)
T2A68 001:248 JLINK_WriteReg(XPSR, 0x01000000)  returns 0x00 (0001ms, 0754ms total)
T2A68 001:249 JLINK_WriteReg(MSP, 0x20001000)  returns 0x00 (0000ms, 0754ms total)
T2A68 001:249 JLINK_WriteReg(PSP, 0x20001000)  returns 0x00 (0000ms, 0754ms total)
T2A68 001:250 JLINK_WriteReg(CFBP, 0x00000000)  returns 0x00 (0000ms, 0754ms total)
T2A68 001:250 JLINK_SetBPEx(Addr = 0x20000000, Type = 0xFFFFFFF2)  returns 0x0000000A (0000ms, 0754ms total)
T2A68 001:250 JLINK_Go() -- CPU_ReadMem(4 bytes @ 0xE0001000) (0001ms, 0755ms total)
T2A68 001:251 JLINK_IsHalted()  returns FALSE (0001ms, 0756ms total)
T2A68 001:258 JLINK_IsHalted()  returns FALSE (0000ms, 0755ms total)
T2A68 001:260 JLINK_IsHalted()  returns FALSE (0000ms, 0755ms total)
T2A68 001:262 JLINK_IsHalted()  returns FALSE (0000ms, 0755ms total)
T2A68 001:264 JLINK_IsHalted()  returns FALSE (0000ms, 0755ms total)
T2A68 001:271 JLINK_IsHalted()  returns FALSE (0000ms, 0755ms total)
T2A68 001:274 JLINK_IsHalted()  returns FALSE (0000ms, 0755ms total)
T2A68 001:275 JLINK_IsHalted()  returns FALSE (0000ms, 0755ms total)
T2A68 001:277 JLINK_IsHalted()  returns FALSE (0000ms, 0755ms total)
T2A68 001:279 JLINK_IsHalted()  returns FALSE (0000ms, 0755ms total)
T2A68 001:291 JLINK_IsHalted() -- CPU_ReadMem(2 bytes @ 0x20000000)  returns TRUE (0003ms, 0758ms total)
T2A68 001:294 JLINK_ReadReg(R15 (PC))  returns 0x20000000 (0000ms, 0755ms total)
T2A68 001:294 JLINK_ClrBPEx(BPHandle = 0x0000000A)  returns 0x00 (0001ms, 0756ms total)
T2A68 001:295 JLINK_ReadReg(R0)  returns 0x00000000 (0000ms, 0756ms total)
T2A68 001:296 JLINK_WriteMem(0x20000164, 0x0400 Bytes, ...) - Data: 06 48 00 F0 D7 FB 00 28 F8 D1 01 E0 60 06 04 0E ... -- CPU_WriteMem(1024 bytes @ 0x20000164)  returns 0x400 (0004ms, 0760ms total)
T2A68 001:301 JLINK_WriteReg(R0, 0x08001800)  returns 0x00 (0000ms, 0760ms total)
T2A68 001:301 JLINK_WriteReg(R1, 0x00000400)  returns 0x00 (0000ms, 0760ms total)
T2A68 001:301 JLINK_WriteReg(R2, 0x20000164)  returns 0x00 (0001ms, 0761ms total)
T2A68 001:302 JLINK_WriteReg(R3, 0x00000000)  returns 0x00 (0000ms, 0761ms total)
T2A68 001:302 JLINK_WriteReg(R4, 0x00000000)  returns 0x00 (0001ms, 0762ms total)
T2A68 001:303 JLINK_WriteReg(R5, 0x00000000)  returns 0x00 (0000ms, 0762ms total)
T2A68 001:303 JLINK_WriteReg(R6, 0x00000000)  returns 0x00 (0001ms, 0763ms total)
T2A68 001:304 JLINK_WriteReg(R7, 0x00000000)  returns 0x00 (0000ms, 0763ms total)
T2A68 001:304 JLINK_WriteReg(R8, 0x00000000)  returns 0x00 (0001ms, 0764ms total)
T2A68 001:305 JLINK_WriteReg(R9, 0x20000160)  returns 0x00 (0000ms, 0764ms total)
T2A68 001:305 JLINK_WriteReg(R10, 0x00000000)  returns 0x00 (0001ms, 0765ms total)
T2A68 001:306 JLINK_WriteReg(R11, 0x00000000)  returns 0x00 (0000ms, 0765ms total)
T2A68 001:306 JLINK_WriteReg(R12, 0x00000000)  returns 0x00 (0000ms, 0765ms total)
T2A68 001:306 JLINK_WriteReg(R13 (SP), 0x20001000)  returns 0x00 (0000ms, 0765ms total)
T2A68 001:306 JLINK_WriteReg(R14, 0x20000001)  returns 0x00 (0000ms, 0765ms total)
T2A68 001:306 JLINK_WriteReg(R15 (PC), 0x200000F4)  returns 0x00 (0000ms, 0765ms total)
T2A68 001:306 JLINK_WriteReg(XPSR, 0x01000000)  returns 0x00 (0000ms, 0765ms total)
T2A68 001:306 JLINK_WriteReg(MSP, 0x20001000)  returns 0x00 (0001ms, 0766ms total)
T2A68 001:307 JLINK_WriteReg(PSP, 0x20001000)  returns 0x00 (0000ms, 0766ms total)
T2A68 001:307 JLINK_WriteReg(CFBP, 0x00000000)  returns 0x00 (0000ms, 0766ms total)
T2A68 001:307 JLINK_SetBPEx(Addr = 0x20000000, Type = 0xFFFFFFF2)  returns 0x0000000B (0000ms, 0766ms total)
T2A68 001:307 JLINK_Go() -- CPU_ReadMem(4 bytes @ 0xE0001000) (0001ms, 0767ms total)
T2A68 001:308 JLINK_IsHalted()  returns FALSE (0001ms, 0768ms total)
T2A68 001:319 JLINK_IsHalted()  returns FALSE (0000ms, 0767ms total)
T2A68 001:321 JLINK_IsHalted()  returns FALSE (0000ms, 0767ms total)
T2A68 001:330 JLINK_IsHalted()  returns FALSE (0000ms, 0767ms total)
T2A68 001:333 JLINK_IsHalted()  returns FALSE (0000ms, 0767ms total)
T2A68 001:336 JLINK_IsHalted()  returns FALSE (0000ms, 0767ms total)
T2A68 001:342 JLINK_IsHalted() -- CPU_ReadMem(2 bytes @ 0x20000000)  returns TRUE (0002ms, 0769ms total)
T2A68 001:344 JLINK_ReadReg(R15 (PC))  returns 0x20000000 (0001ms, 0768ms total)
T2A68 001:345 JLINK_ClrBPEx(BPHandle = 0x0000000B)  returns 0x00 (0000ms, 0768ms total)
T2A68 001:345 JLINK_ReadReg(R0)  returns 0x00000000 (0000ms, 0768ms total)
T2A68 001:347 JLINK_WriteMem(0x20000164, 0x0400 Bytes, ...) - Data: 8D F8 03 00 69 46 6E 48 00 F0 00 F9 80 20 AD F8 ... -- CPU_WriteMem(1024 bytes @ 0x20000164)  returns 0x400 (0004ms, 0772ms total)
T2A68 001:351 JLINK_WriteReg(R0, 0x08001C00)  returns 0x00 (0000ms, 0772ms total)
T2A68 001:351 JLINK_WriteReg(R1, 0x00000400)  returns 0x00 (0000ms, 0772ms total)
T2A68 001:351 JLINK_WriteReg(R2, 0x20000164)  returns 0x00 (0000ms, 0772ms total)
T2A68 001:351 JLINK_WriteReg(R3, 0x00000000)  returns 0x00 (0001ms, 0773ms total)
T2A68 001:352 JLINK_WriteReg(R4, 0x00000000)  returns 0x00 (0000ms, 0773ms total)
T2A68 001:352 JLINK_WriteReg(R5, 0x00000000)  returns 0x00 (0000ms, 0773ms total)
T2A68 001:352 JLINK_WriteReg(R6, 0x00000000)  returns 0x00 (0000ms, 0773ms total)
T2A68 001:352 JLINK_WriteReg(R7, 0x00000000)  returns 0x00 (0000ms, 0773ms total)
T2A68 001:352 JLINK_WriteReg(R8, 0x00000000)  returns 0x00 (0000ms, 0773ms total)
T2A68 001:352 JLINK_WriteReg(R9, 0x20000160)  returns 0x00 (0000ms, 0773ms total)
T2A68 001:353 JLINK_WriteReg(R10, 0x00000000)  returns 0x00 (0000ms, 0773ms total)
T2A68 001:353 JLINK_WriteReg(R11, 0x00000000)  returns 0x00 (0000ms, 0773ms total)
T2A68 001:353 JLINK_WriteReg(R12, 0x00000000)  returns 0x00 (0000ms, 0773ms total)
T2A68 001:353 JLINK_WriteReg(R13 (SP), 0x20001000)  returns 0x00 (0000ms, 0773ms total)
T2A68 001:353 JLINK_WriteReg(R14, 0x20000001)  returns 0x00 (0000ms, 0773ms total)
T2A68 001:353 JLINK_WriteReg(R15 (PC), 0x200000F4)  returns 0x00 (0000ms, 0773ms total)
T2A68 001:353 JLINK_WriteReg(XPSR, 0x01000000)  returns 0x00 (0001ms, 0774ms total)
T2A68 001:354 JLINK_WriteReg(MSP, 0x20001000)  returns 0x00 (0000ms, 0774ms total)
T2A68 001:354 JLINK_WriteReg(PSP, 0x20001000)  returns 0x00 (0000ms, 0774ms total)
T2A68 001:354 JLINK_WriteReg(CFBP, 0x00000000)  returns 0x00 (0000ms, 0774ms total)
T2A68 001:354 JLINK_SetBPEx(Addr = 0x20000000, Type = 0xFFFFFFF2)  returns 0x0000000C (0000ms, 0774ms total)
T2A68 001:354 JLINK_Go() -- CPU_ReadMem(4 bytes @ 0xE0001000) (0001ms, 0775ms total)
T2A68 001:355 JLINK_IsHalted()  returns FALSE (0001ms, 0776ms total)
T2A68 001:362 JLINK_IsHalted()  returns FALSE (0000ms, 0775ms total)
T2A68 001:364 JLINK_IsHalted()  returns FALSE (0000ms, 0775ms total)
T2A68 001:366 JLINK_IsHalted()  returns FALSE (0000ms, 0775ms total)
T2A68 001:382 JLINK_IsHalted()  returns FALSE (0000ms, 0775ms total)
T2A68 001:384 JLINK_IsHalted()  returns FALSE (0000ms, 0775ms total)
T2A68 001:386 JLINK_IsHalted()  returns FALSE (0000ms, 0775ms total)
T2A68 001:388 JLINK_IsHalted() -- CPU_ReadMem(2 bytes @ 0x20000000)  returns TRUE (0002ms, 0777ms total)
T2A68 001:390 JLINK_ReadReg(R15 (PC))  returns 0x20000000 (0000ms, 0775ms total)
T2A68 001:390 JLINK_ClrBPEx(BPHandle = 0x0000000C)  returns 0x00 (0000ms, 0775ms total)
T2A68 001:390 JLINK_ReadReg(R0)  returns 0x00000000 (0000ms, 0775ms total)
T2A68 001:391 JLINK_WriteMem(0x20000164, 0x0400 Bytes, ...) - Data: 49 68 00 EB 91 00 07 49 89 68 00 EB D1 00 06 49 ... -- CPU_WriteMem(1024 bytes @ 0x20000164)  returns 0x400 (0004ms, 0779ms total)
T2A68 001:395 JLINK_WriteReg(R0, 0x08002000)  returns 0x00 (0000ms, 0779ms total)
T2A68 001:395 JLINK_WriteReg(R1, 0x00000400)  returns 0x00 (0000ms, 0779ms total)
T2A68 001:395 JLINK_WriteReg(R2, 0x20000164)  returns 0x00 (0000ms, 0779ms total)
T2A68 001:395 JLINK_WriteReg(R3, 0x00000000)  returns 0x00 (0001ms, 0780ms total)
T2A68 001:396 JLINK_WriteReg(R4, 0x00000000)  returns 0x00 (0000ms, 0780ms total)
T2A68 001:396 JLINK_WriteReg(R5, 0x00000000)  returns 0x00 (0000ms, 0780ms total)
T2A68 001:396 JLINK_WriteReg(R6, 0x00000000)  returns 0x00 (0000ms, 0780ms total)
T2A68 001:396 JLINK_WriteReg(R7, 0x00000000)  returns 0x00 (0000ms, 0780ms total)
T2A68 001:396 JLINK_WriteReg(R8, 0x00000000)  returns 0x00 (0000ms, 0780ms total)
T2A68 001:396 JLINK_WriteReg(R9, 0x20000160)  returns 0x00 (0000ms, 0780ms total)
T2A68 001:396 JLINK_WriteReg(R10, 0x00000000)  returns 0x00 (0001ms, 0781ms total)
T2A68 001:397 JLINK_WriteReg(R11, 0x00000000)  returns 0x00 (0000ms, 0781ms total)
T2A68 001:397 JLINK_WriteReg(R12, 0x00000000)  returns 0x00 (0000ms, 0781ms total)
T2A68 001:397 JLINK_WriteReg(R13 (SP), 0x20001000)  returns 0x00 (0000ms, 0781ms total)
T2A68 001:397 JLINK_WriteReg(R14, 0x20000001)  returns 0x00 (0000ms, 0781ms total)
T2A68 001:397 JLINK_WriteReg(R15 (PC), 0x200000F4)  returns 0x00 (0000ms, 0781ms total)
T2A68 001:397 JLINK_WriteReg(XPSR, 0x01000000)  returns 0x00 (0001ms, 0782ms total)
T2A68 001:398 JLINK_WriteReg(MSP, 0x20001000)  returns 0x00 (0000ms, 0782ms total)
T2A68 001:398 JLINK_WriteReg(PSP, 0x20001000)  returns 0x00 (0000ms, 0782ms total)
T2A68 001:398 JLINK_WriteReg(CFBP, 0x00000000)  returns 0x00 (0000ms, 0782ms total)
T2A68 001:398 JLINK_SetBPEx(Addr = 0x20000000, Type = 0xFFFFFFF2)  returns 0x0000000D (0000ms, 0782ms total)
T2A68 001:398 JLINK_Go() -- CPU_ReadMem(4 bytes @ 0xE0001000) (0001ms, 0783ms total)
T2A68 001:400 JLINK_IsHalted()  returns FALSE (0000ms, 0784ms total)
T2A68 001:421 JLINK_IsHalted()  returns FALSE (0000ms, 0784ms total)
T2A68 001:423 JLINK_IsHalted()  returns FALSE (0000ms, 0784ms total)
T2A68 001:425 JLINK_IsHalted()  returns FALSE (0000ms, 0784ms total)
T2A68 001:427 JLINK_IsHalted()  returns FALSE (0000ms, 0784ms total)
T2A68 001:429 JLINK_IsHalted()  returns FALSE (0000ms, 0784ms total)
T2A68 001:439 JLINK_IsHalted() -- CPU_ReadMem(2 bytes @ 0x20000000)  returns TRUE (0002ms, 0786ms total)
T2A68 001:441 JLINK_ReadReg(R15 (PC))  returns 0x20000000 (0000ms, 0784ms total)
T2A68 001:441 JLINK_ClrBPEx(BPHandle = 0x0000000D)  returns 0x00 (0000ms, 0784ms total)
T2A68 001:441 JLINK_ReadReg(R0)  returns 0x00000000 (0000ms, 0784ms total)
T2A68 001:442 JLINK_WriteMem(0x20000164, 0x0400 Bytes, ...) - Data: 20 46 FF F7 ED FE 05 20 96 E7 61 68 01 98 08 44 ... -- CPU_WriteMem(1024 bytes @ 0x20000164)  returns 0x400 (0004ms, 0788ms total)
T2A68 001:446 JLINK_WriteReg(R0, 0x08002400)  returns 0x00 (0000ms, 0788ms total)
T2A68 001:446 JLINK_WriteReg(R1, 0x00000400)  returns 0x00 (0000ms, 0788ms total)
T2A68 001:446 JLINK_WriteReg(R2, 0x20000164)  returns 0x00 (0000ms, 0788ms total)
T2A68 001:446 JLINK_WriteReg(R3, 0x00000000)  returns 0x00 (0000ms, 0788ms total)
T2A68 001:446 JLINK_WriteReg(R4, 0x00000000)  returns 0x00 (0000ms, 0788ms total)
T2A68 001:446 JLINK_WriteReg(R5, 0x00000000)  returns 0x00 (0001ms, 0789ms total)
T2A68 001:447 JLINK_WriteReg(R6, 0x00000000)  returns 0x00 (0000ms, 0789ms total)
T2A68 001:447 JLINK_WriteReg(R7, 0x00000000)  returns 0x00 (0000ms, 0789ms total)
T2A68 001:447 JLINK_WriteReg(R8, 0x00000000)  returns 0x00 (0000ms, 0789ms total)
T2A68 001:447 JLINK_WriteReg(R9, 0x20000160)  returns 0x00 (0000ms, 0789ms total)
T2A68 001:447 JLINK_WriteReg(R10, 0x00000000)  returns 0x00 (0000ms, 0789ms total)
T2A68 001:447 JLINK_WriteReg(R11, 0x00000000)  returns 0x00 (0000ms, 0789ms total)
T2A68 001:448 JLINK_WriteReg(R12, 0x00000000)  returns 0x00 (0000ms, 0790ms total)
T2A68 001:448 JLINK_WriteReg(R13 (SP), 0x20001000)  returns 0x00 (0000ms, 0790ms total)
T2A68 001:448 JLINK_WriteReg(R14, 0x20000001)  returns 0x00 (0000ms, 0790ms total)
T2A68 001:448 JLINK_WriteReg(R15 (PC), 0x200000F4)  returns 0x00 (0000ms, 0790ms total)
T2A68 001:448 JLINK_WriteReg(XPSR, 0x01000000)  returns 0x00 (0000ms, 0790ms total)
T2A68 001:448 JLINK_WriteReg(MSP, 0x20001000)  returns 0x00 (0000ms, 0790ms total)
T2A68 001:448 JLINK_WriteReg(PSP, 0x20001000)  returns 0x00 (0001ms, 0791ms total)
T2A68 001:449 JLINK_WriteReg(CFBP, 0x00000000)  returns 0x00 (0000ms, 0791ms total)
T2A68 001:449 JLINK_SetBPEx(Addr = 0x20000000, Type = 0xFFFFFFF2)  returns 0x0000000E (0000ms, 0791ms total)
T2A68 001:449 JLINK_Go() -- CPU_ReadMem(4 bytes @ 0xE0001000) (0001ms, 0792ms total)
T2A68 001:450 JLINK_IsHalted()  returns FALSE (0001ms, 0793ms total)
T2A68 001:454 JLINK_IsHalted()  returns FALSE (0000ms, 0792ms total)
T2A68 001:456 JLINK_IsHalted()  returns FALSE (0000ms, 0792ms total)
T2A68 001:458 JLINK_IsHalted()  returns FALSE (0000ms, 0792ms total)
T2A68 001:460 JLINK_IsHalted()  returns FALSE (0000ms, 0792ms total)
T2A68 001:462 JLINK_IsHalted()  returns FALSE (0000ms, 0792ms total)
T2A68 001:464 JLINK_IsHalted()  returns FALSE (0000ms, 0792ms total)
T2A68 001:475 JLINK_IsHalted()  returns FALSE (0000ms, 0792ms total)
T2A68 001:477 JLINK_IsHalted()  returns FALSE (0000ms, 0792ms total)
T2A68 001:479 JLINK_IsHalted()  returns FALSE (0000ms, 0792ms total)
T2A68 001:487 JLINK_IsHalted() -- CPU_ReadMem(2 bytes @ 0x20000000)  returns TRUE (0002ms, 0794ms total)
T2A68 001:489 JLINK_ReadReg(R15 (PC))  returns 0x20000000 (0000ms, 0792ms total)
T2A68 001:489 JLINK_ClrBPEx(BPHandle = 0x0000000E)  returns 0x00 (0000ms, 0792ms total)
T2A68 001:489 JLINK_ReadReg(R0)  returns 0x00000000 (0000ms, 0792ms total)
T2A68 001:490 JLINK_WriteMem(0x20000164, 0x0400 Bytes, ...) - Data: E5 E7 2D E9 FF 5F 80 46 17 46 99 46 0E 9C 00 26 ... -- CPU_WriteMem(1024 bytes @ 0x20000164)  returns 0x400 (0004ms, 0796ms total)
T2A68 001:494 JLINK_WriteReg(R0, 0x08002800)  returns 0x00 (0000ms, 0796ms total)
T2A68 001:494 JLINK_WriteReg(R1, 0x00000400)  returns 0x00 (0000ms, 0796ms total)
T2A68 001:494 JLINK_WriteReg(R2, 0x20000164)  returns 0x00 (0000ms, 0796ms total)
T2A68 001:494 JLINK_WriteReg(R3, 0x00000000)  returns 0x00 (0001ms, 0797ms total)
T2A68 001:495 JLINK_WriteReg(R4, 0x00000000)  returns 0x00 (0000ms, 0797ms total)
T2A68 001:495 JLINK_WriteReg(R5, 0x00000000)  returns 0x00 (0000ms, 0797ms total)
T2A68 001:495 JLINK_WriteReg(R6, 0x00000000)  returns 0x00 (0000ms, 0797ms total)
T2A68 001:495 JLINK_WriteReg(R7, 0x00000000)  returns 0x00 (0000ms, 0797ms total)
T2A68 001:495 JLINK_WriteReg(R8, 0x00000000)  returns 0x00 (0000ms, 0797ms total)
T2A68 001:495 JLINK_WriteReg(R9, 0x20000160)  returns 0x00 (0000ms, 0797ms total)
T2A68 001:495 JLINK_WriteReg(R10, 0x00000000)  returns 0x00 (0001ms, 0798ms total)
T2A68 001:496 JLINK_WriteReg(R11, 0x00000000)  returns 0x00 (0000ms, 0798ms total)
T2A68 001:496 JLINK_WriteReg(R12, 0x00000000)  returns 0x00 (0000ms, 0798ms total)
T2A68 001:496 JLINK_WriteReg(R13 (SP), 0x20001000)  returns 0x00 (0000ms, 0798ms total)
T2A68 001:496 JLINK_WriteReg(R14, 0x20000001)  returns 0x00 (0000ms, 0798ms total)
T2A68 001:496 JLINK_WriteReg(R15 (PC), 0x200000F4)  returns 0x00 (0000ms, 0798ms total)
T2A68 001:496 JLINK_WriteReg(XPSR, 0x01000000)  returns 0x00 (0000ms, 0798ms total)
T2A68 001:497 JLINK_WriteReg(MSP, 0x20001000)  returns 0x00 (0000ms, 0799ms total)
T2A68 001:497 JLINK_WriteReg(PSP, 0x20001000)  returns 0x00 (0000ms, 0799ms total)
T2A68 001:497 JLINK_WriteReg(CFBP, 0x00000000)  returns 0x00 (0000ms, 0799ms total)
T2A68 001:497 JLINK_SetBPEx(Addr = 0x20000000, Type = 0xFFFFFFF2)  returns 0x0000000F (0000ms, 0799ms total)
T2A68 001:497 JLINK_Go() -- CPU_ReadMem(4 bytes @ 0xE0001000) (0002ms, 0801ms total)
T2A68 001:499 JLINK_IsHalted()  returns FALSE (0000ms, 0801ms total)
T2A68 001:514 JLINK_IsHalted()  returns FALSE (0000ms, 0801ms total)
T2A68 001:516 JLINK_IsHalted()  returns FALSE (0000ms, 0801ms total)
T2A68 001:518 JLINK_IsHalted()  returns FALSE (0000ms, 0801ms total)
T2A68 001:520 JLINK_IsHalted()  returns FALSE (0000ms, 0801ms total)
T2A68 001:522 JLINK_IsHalted()  returns FALSE (0000ms, 0801ms total)
T2A68 001:529 JLINK_IsHalted()  returns FALSE (0000ms, 0801ms total)
T2A68 001:531 JLINK_IsHalted() -- CPU_ReadMem(2 bytes @ 0x20000000)  returns TRUE (0002ms, 0803ms total)
T2A68 001:533 JLINK_ReadReg(R15 (PC))  returns 0x20000000 (0000ms, 0801ms total)
T2A68 001:533 JLINK_ClrBPEx(BPHandle = 0x0000000F)  returns 0x00 (0000ms, 0801ms total)
T2A68 001:533 JLINK_ReadReg(R0)  returns 0x00000000 (0000ms, 0801ms total)
T2A68 001:534 JLINK_WriteMem(0x20000164, 0x0400 Bytes, ...) - Data: B3 FA 01 98 00 1F A0 EB 04 08 08 F1 01 00 03 F0 ... -- CPU_WriteMem(1024 bytes @ 0x20000164)  returns 0x400 (0004ms, 0805ms total)
T2A68 001:538 JLINK_WriteReg(R0, 0x08002C00)  returns 0x00 (0000ms, 0805ms total)
T2A68 001:538 JLINK_WriteReg(R1, 0x00000400)  returns 0x00 (0000ms, 0805ms total)
T2A68 001:538 JLINK_WriteReg(R2, 0x20000164)  returns 0x00 (0000ms, 0805ms total)
T2A68 001:538 JLINK_WriteReg(R3, 0x00000000)  returns 0x00 (0000ms, 0805ms total)
T2A68 001:538 JLINK_WriteReg(R4, 0x00000000)  returns 0x00 (0001ms, 0806ms total)
T2A68 001:539 JLINK_WriteReg(R5, 0x00000000)  returns 0x00 (0000ms, 0806ms total)
T2A68 001:539 JLINK_WriteReg(R6, 0x00000000)  returns 0x00 (0000ms, 0806ms total)
T2A68 001:539 JLINK_WriteReg(R7, 0x00000000)  returns 0x00 (0000ms, 0806ms total)
T2A68 001:539 JLINK_WriteReg(R8, 0x00000000)  returns 0x00 (0000ms, 0806ms total)
T2A68 001:539 JLINK_WriteReg(R9, 0x20000160)  returns 0x00 (0000ms, 0806ms total)
